time	V(u_l)	V(u_rl)	I(R1)
0.000000000000000e+000	0.000000e+000	0.000000e+000	0.000000e+000
9.765883313980041e-007	3.067105e-003	3.068043e-003	9.381837e-008
1.953176662796008e-006	6.132341e-003	6.136086e-003	3.744325e-007
2.929764994194012e-006	9.195707e-003	9.204127e-003	8.418423e-007
3.906353325592016e-006	1.225720e-002	1.227217e-002	1.496048e-006
4.882941656990020e-006	1.531683e-002	1.534021e-002	2.337049e-006
5.859529988388024e-006	1.837459e-002	1.840824e-002	3.364846e-006
6.836118319786027e-006	2.143047e-002	2.147628e-002	4.579439e-006
1.367177443428198e-005	4.276806e-002	4.295101e-002	1.828327e-005
2.734308666327387e-005	8.517022e-002	8.589979e-002	7.286405e-005
5.468571112125767e-005	1.689521e-001	1.717918e-001	2.833274e-004
1.035138361212577e-004	3.159705e-001	3.251410e-001	9.151386e-004
1.523419611212577e-004	4.597648e-001	4.784137e-001	1.862078e-003
2.011700861212577e-004	5.999796e-001	6.315739e-001	3.155705e-003
2.499982111212577e-004	7.366658e-001	7.845854e-001	4.787343e-003
2.988263361212577e-004	8.698728e-001	9.374123e-001	6.748435e-003
3.476544611212576e-004	9.996490e-001	1.090019e+000	9.030547e-003
3.964825861212576e-004	1.126042e+000	1.242368e+000	1.162536e-002
4.453107111212576e-004	1.249097e+000	1.394426e+000	1.452467e-002
4.941388361212576e-004	1.368861e+000	1.546155e+000	1.772038e-002
5.429669611212577e-004	1.485376e+000	1.697521e+000	2.120451e-002
5.917950861212577e-004	1.598687e+000	1.848487e+000	2.496917e-002
6.406232111212577e-004	1.708835e+000	1.999018e+000	2.900661e-002
6.894513361212578e-004	1.815861e+000	2.149079e+000	3.330914e-002
7.382794611212578e-004	1.919807e+000	2.298634e+000	3.786919e-002
7.871075861212579e-004	2.020711e+000	2.447648e+000	4.267930e-002
8.847638361212580e-004	2.213550e+000	2.743914e+000	5.302024e-002
9.824200861212580e-004	2.394678e+000	3.037597e+000	6.427404e-002
1.080076336121258e-003	2.564384e+000	3.328422e+000	7.638422e-002
1.226560711121258e-003	2.798128e+000	3.758700e+000	9.603506e-002
1.373045086121258e-003	3.007686e+000	4.181019e+000	1.173087e-001
1.512554014692687e-003	3.183988e+000	4.576785e+000	1.392528e-001
1.652062943264115e-003	3.341404e+000	4.961972e+000	1.620276e-001
1.791571871835544e-003	3.479934e+000	5.336579e+000	1.856331e-001
1.931080800406972e-003	3.599578e+000	5.700607e+000	2.100693e-001
2.070589728978401e-003	3.700337e+000	6.054055e+000	2.353362e-001
2.210098657549829e-003	3.782210e+000	6.396924e+000	2.614338e-001
2.349607586121258e-003	3.845197e+000	6.729213e+000	2.883620e-001
2.551895532549828e-003	3.905077e+000	7.189219e+000	3.283720e-001
2.754183478978399e-003	3.935145e+000	7.616283e+000	3.680690e-001
2.956471425406970e-003	3.935402e+000	8.010404e+000	4.074530e-001
3.158759371835540e-003	3.905849e+000	8.371583e+000	4.465242e-001
3.361047318264111e-003	3.846484e+000	8.699820e+000	4.852824e-001
3.563335264692682e-003	3.757309e+000	8.995114e+000	5.237276e-001
3.765623211121253e-003	3.638323e+000	9.257466e+000	5.618599e-001
3.988837496835537e-003	3.477830e+000	9.501156e+000	6.022767e-001
4.212051782549822e-003	3.294652e+000	9.696447e+000	6.401225e-001
4.435266068264107e-003	3.088787e+000	9.843339e+000	6.753972e-001
4.658480353978392e-003	2.860237e+000	9.941831e+000	7.081009e-001
4.881694639692678e-003	2.609002e+000	9.991925e+000	7.382336e-001
5.104908925406963e-003	2.335080e+000	9.993620e+000	7.657952e-001
5.328123211121247e-003	2.038473e+000	9.946917e+000	7.907858e-001
5.481583032549818e-003	1.827278e+000	9.885077e+000	8.057217e-001
5.635042853978389e-003	1.611143e+000	9.800909e+000	8.189188e-001
5.788502675406960e-003	1.390069e+000	9.694411e+000	8.303772e-001
5.941962496835531e-003	1.164056e+000	9.565586e+000	8.400967e-001
6.095422318264101e-003	9.331023e-001	9.414431e+000	8.480775e-001
6.248882139692672e-003	6.972095e-001	9.240948e+000	8.543194e-001
6.402341961121243e-003	4.563771e-001	9.045135e+000	8.588226e-001
6.444194639692672e-003	3.906506e-001	8.988258e+000	8.597079e-001
6.486047318264100e-003	3.247809e-001	8.929853e+000	8.604547e-001
6.527899996835528e-003	2.587681e-001	8.869920e+000	8.610631e-001
6.569752675406957e-003	1.926122e-001	8.808459e+000	8.615329e-001
6.611605353978385e-003	1.263131e-001	8.745470e+000	8.618643e-001
6.653458032549814e-003	5.987094e-002	8.680954e+000	8.620573e-001
6.695310711121242e-003	-6.714369e-003	8.614910e+000	8.621117e-001
6.779016068264099e-003	-1.403571e-001	8.478158e+000	8.618016e-001
6.862721425406956e-003	-2.740066e-001	8.335800e+000	8.609316e-001
6.946426782549813e-003	-4.076629e-001	8.187837e+000	8.595019e-001
7.030132139692670e-003	-5.413259e-001	8.034270e+000	8.575123e-001
7.113837496835526e-003	-6.749957e-001	7.875098e+000	8.549630e-001
7.197542853978383e-003	-8.086723e-001	7.710321e+000	8.518539e-001
7.281248211121240e-003	-9.423556e-001	7.539938e+000	8.481851e-001
7.476560711121242e-003	-1.255163e+000	7.118421e+000	8.373166e-001
7.671873211121243e-003	-1.561564e+000	6.674537e+000	8.235708e-001
7.867185711121244e-003	-1.861557e+000	6.208287e+000	8.069479e-001
8.062498211121247e-003	-2.155143e+000	5.719670e+000	7.874477e-001
8.257810711121248e-003	-2.442322e+000	5.208687e+000	7.650703e-001
8.453123211121249e-003	-2.723093e+000	4.675338e+000	7.398156e-001
8.648435711121250e-003	-2.997458e+000	4.119622e+000	7.116838e-001
8.801895532549824e-003	-3.204519e+000	3.673019e+000	6.877322e-001
8.955355353978397e-003	-3.403411e+000	3.220550e+000	6.623771e-001
9.108815175406971e-003	-3.594133e+000	2.762214e+000	6.356184e-001
9.262274996835544e-003	-3.776687e+000	2.298011e+000	6.074563e-001
9.415734818264118e-003	-3.951071e+000	1.827942e+000	5.778906e-001
9.569194639692693e-003	-4.117287e+000	1.352007e+000	5.469214e-001
9.722654461121265e-003	-4.275332e+000	8.702047e-001	5.145486e-001
9.771482586121266e-003	-4.323289e+000	7.172020e-001	5.040449e-001
9.820310711121267e-003	-4.370227e+000	5.641206e-001	4.934315e-001
9.869138836121267e-003	-4.416148e+000	4.109606e-001	4.827085e-001
9.917966961121268e-003	-4.461052e+000	2.577219e-001	4.718759e-001
9.966795086121269e-003	-4.504938e+000	1.044046e-001	4.609336e-001
1.001562321112127e-002	-4.547806e+000	-4.899138e-002	4.498817e-001
1.006445133612127e-002	-4.589657e+000	-2.024660e-001	4.387202e-001
1.018303392540699e-002	-4.687109e+000	-5.759808e-001	4.111162e-001
1.030161651469270e-002	-4.777888e+000	-9.474162e-001	3.830527e-001
1.042019910397842e-002	-4.861992e+000	-1.316772e+000	3.545297e-001
1.053878169326413e-002	-4.939422e+000	-1.684049e+000	3.255472e-001
1.065736428254985e-002	-5.010178e+000	-2.049246e+000	2.961052e-001
1.077594687183557e-002	-5.074259e+000	-2.412364e+000	2.662037e-001
1.089452946112128e-002	-5.131666e+000	-2.773403e+000	2.358426e-001
1.101311205040700e-002	-5.181894e+000	-3.130512e+000	2.051566e-001
1.113169463969271e-002	-5.224889e+000	-3.482080e+000	1.743014e-001
1.125027722897843e-002	-5.260651e+000	-3.828107e+000	1.432770e-001
1.136885981826415e-002	-5.289181e+000	-4.168592e+000	1.120834e-001
1.148744240754986e-002	-5.310478e+000	-4.503537e+000	8.072059e-002
1.160602499683558e-002	-5.324542e+000	-4.832940e+000	4.918860e-002
1.172460758612129e-002	-5.331374e+000	-5.156803e+000	1.748741e-002
1.178041115754987e-002	-5.332002e+000	-5.306318e+000	2.599597e-003
1.183621472897844e-002	-5.331007e+000	-5.454091e+000	-1.227633e-002
1.189201830040701e-002	-5.328388e+000	-5.600121e+000	-2.714038e-002
1.194782187183558e-002	-5.324145e+000	-5.744408e+000	-4.199254e-002
1.200362544326416e-002	-5.318278e+000	-5.886953e+000	-5.683282e-002
1.205942901469273e-002	-5.310787e+000	-6.027754e+000	-7.166122e-002
1.211523258612130e-002	-5.301672e+000	-6.166813e+000	-8.647774e-002
1.228264330040702e-002	-5.264151e+000	-6.574581e+000	-1.310043e-001
1.245005401469273e-002	-5.212620e+000	-6.961661e+000	-1.748631e-001
1.261746472897845e-002	-5.147080e+000	-7.328053e+000	-2.180541e-001
1.278487544326417e-002	-5.067530e+000	-7.673755e+000	-2.605773e-001
1.295228615754988e-002	-4.973971e+000	-7.998769e+000	-3.024328e-001
1.311969687183560e-002	-4.866403e+000	-8.303095e+000	-3.436204e-001
1.328710758612132e-002	-4.744824e+000	-8.586732e+000	-3.841403e-001
1.356612544326418e-002	-4.508341e+000	-9.006924e+000	-4.498054e-001
1.384514330040704e-002	-4.243084e+000	-9.352994e+000	-5.109360e-001
1.412416115754990e-002	-3.949055e+000	-9.624944e+000	-5.675323e-001
1.440317901469276e-002	-3.626254e+000	-9.822773e+000	-6.195942e-001
1.468219687183562e-002	-3.274679e+000	-9.946481e+000	-6.671217e-001
1.496121472897848e-002	-2.894332e+000	-9.996068e+000	-7.101147e-001
1.524023258612134e-002	-2.485213e+000	-9.971534e+000	-7.485734e-001
1.540764330040706e-002	-2.232462e+000	-9.917261e+000	-7.684215e-001
1.557505401469278e-002	-1.975368e+000	-9.836340e+000	-7.860393e-001
1.574246472897849e-002	-1.713928e+000	-9.728770e+000	-8.014270e-001
1.590987544326421e-002	-1.448144e+000	-9.594552e+000	-8.145844e-001
1.607728615754993e-002	-1.178016e+000	-9.433687e+000	-8.255116e-001
1.624469687183564e-002	-9.035428e-001	-9.246172e+000	-8.342086e-001
1.641210758612136e-002	-6.247252e-001	-9.032010e+000	-8.406754e-001
1.646791115754993e-002	-5.319134e-001	-8.955314e+000	-8.422874e-001
1.652371472897850e-002	-4.390107e-001	-8.875930e+000	-8.436398e-001
1.657951830040708e-002	-3.460173e-001	-8.793857e+000	-8.447323e-001
1.663532187183565e-002	-2.529330e-001	-8.709095e+000	-8.455650e-001
1.669112544326422e-002	-1.597580e-001	-8.621644e+000	-8.461379e-001
1.674692901469279e-002	-6.649213e-002	-8.531504e+000	-8.464511e-001
1.680273258612136e-002	2.686450e-002	-8.438676e+000	-8.465044e-001
1.690038883612137e-002	1.904554e-001	-8.269677e+000	-8.459646e-001
1.699804508612137e-002	3.534822e-001	-8.093330e+000	-8.446336e-001
1.709570133612137e-002	5.159449e-001	-7.909635e+000	-8.425114e-001
1.719335758612137e-002	6.778434e-001	-7.718592e+000	-8.395981e-001
1.729101383612137e-002	8.391779e-001	-7.520202e+000	-8.358937e-001
1.738867008612137e-002	9.999482e-001	-7.314464e+000	-8.313981e-001
1.748632633612137e-002	1.160154e+000	-7.101377e+000	-8.261114e-001
1.769558972897852e-002	1.502198e+000	-6.617621e+000	-8.119429e-001
1.790485312183567e-002	1.834284e+000	-6.111036e+000	-7.944960e-001
1.811411651469281e-002	2.156412e+000	-5.581623e+000	-7.737707e-001
1.832337990754996e-002	2.468583e+000	-5.029383e+000	-7.497670e-001
1.853264330040710e-002	2.770796e+000	-4.454315e+000	-7.224849e-001
1.874190669326425e-002	3.063052e+000	-3.856420e+000	-6.919245e-001
1.895117008612140e-002	3.345350e+000	-3.235696e+000	-6.580856e-001
1.908370356826425e-002	3.515283e+000	-2.837273e+000	-6.352389e-001
1.921623705040711e-002	3.678448e+000	-2.435688e+000	-6.113993e-001
1.934877053254997e-002	3.834845e+000	-2.030942e+000	-5.865668e-001
1.948130401469283e-002	3.984476e+000	-1.623034e+000	-5.607414e-001
1.961383749683569e-002	4.127339e+000	-1.211965e+000	-5.339232e-001
1.974637097897855e-002	4.263434e+000	-7.977337e-001	-5.061121e-001
1.987890446112141e-002	4.392763e+000	-3.803411e-001	-4.773082e-001
1.993470803254998e-002	4.444720e+000	-2.049717e-001	-4.649680e-001
1.999051160397855e-002	4.495274e+000	-2.967398e-002	-4.524946e-001
2.004631517540713e-002	4.544423e+000	1.455521e-001	-4.398880e-001
2.010211874683570e-002	4.592169e+000	3.207066e-001	-4.271482e-001
2.015792231826427e-002	4.638512e+000	4.957895e-001	-4.142752e-001
2.021372588969284e-002	4.683450e+000	6.708007e-001	-4.012689e-001
2.026952946112141e-002	4.726985e+000	8.457403e-001	-3.881294e-001
2.042996472897856e-002	4.844444e+000	1.349774e+000	-3.494749e-001
2.059039999683570e-002	4.949029e+000	1.847270e+000	-3.101868e-001
2.075083526469285e-002	5.040743e+000	2.338228e+000	-2.702653e-001
2.091127053254999e-002	5.119583e+000	2.822647e+000	-2.297102e-001
2.107170580040714e-002	5.185551e+000	3.300529e+000	-1.885216e-001
2.123214106826429e-002	5.238646e+000	3.771873e+000	-1.466995e-001
2.139257633612143e-002	5.278868e+000	4.236679e+000	-1.042439e-001
2.178320133612144e-002	5.319475e+000	5.313634e+000	-6.153174e-004
2.186690669326429e-002	5.317745e+000	5.534908e+000	2.168368e-002
2.195061205040715e-002	5.312355e+000	5.751987e+000	4.392936e-002
2.203431740755001e-002	5.303305e+000	5.964873e+000	6.612171e-002
2.211802276469287e-002	5.290594e+000	6.173564e+000	8.826074e-002
2.220172812183573e-002	5.274222e+000	6.378062e+000	1.103464e-001
2.228543347897859e-002	5.254190e+000	6.578365e+000	1.323788e-001
2.236913883612144e-002	5.230497e+000	6.774475e+000	1.543579e-001
2.257142678255002e-002	5.157153e+000	7.231726e+000	2.074148e-001
2.277371472897859e-002	5.064159e+000	7.655895e+000	2.591286e-001
2.297600267540717e-002	4.951518e+000	8.046981e+000	3.094990e-001
2.317829062183574e-002	4.819228e+000	8.404984e+000	3.585262e-001
2.338057856826432e-002	4.667289e+000	8.729904e+000	4.062101e-001
2.358286651469289e-002	4.495702e+000	9.021741e+000	4.525508e-001
2.378515446112146e-002	4.304467e+000	9.280495e+000	4.975482e-001
2.403627053255004e-002	4.039803e+000	9.546876e+000	5.506511e-001
2.428738660397862e-002	3.754815e+000	9.751814e+000	5.996426e-001
2.453850267540719e-002	3.449503e+000	9.895310e+000	6.445225e-001
2.478961874683576e-002	3.123867e+000	9.977364e+000	6.852909e-001
2.504073481826434e-002	2.777907e+000	9.997974e+000	7.219479e-001
2.529185088969291e-002	2.411623e+000	9.957142e+000	7.544933e-001
2.554296696112149e-002	2.025015e+000	9.854868e+000	7.829273e-001
2.568945133612149e-002	1.795327e+000	9.765599e+000	7.969697e-001
2.583593571112149e-002	1.563082e+000	9.656356e+000	8.092705e-001
2.598242008612149e-002	1.328282e+000	9.527138e+000	8.198295e-001
2.612890446112150e-002	1.090925e+000	9.377946e+000	8.286469e-001
2.627538883612150e-002	8.510127e-001	9.208780e+000	8.357225e-001
2.642187321112150e-002	6.085439e-001	9.019639e+000	8.410564e-001
2.656835758612150e-002	3.635188e-001	8.810523e+000	8.446486e-001
2.663811205040722e-002	2.470008e-001	8.704619e+000	8.457106e-001
2.670786651469293e-002	1.305040e-001	8.594672e+000	8.463663e-001
2.677762097897865e-002	1.402842e-002	8.480684e+000	8.466156e-001
2.684737544326436e-002	-1.024260e-001	8.362653e+000	8.464587e-001
2.691712990755008e-002	-2.188592e-001	8.240580e+000	8.458954e-001
2.698688437183579e-002	-3.352712e-001	8.114464e+000	8.449258e-001
2.705663883612151e-002	-4.516620e-001	7.984306e+000	8.435498e-001
2.721707410397866e-002	-7.197754e-001	7.668539e+000	8.387864e-001
2.737750937183580e-002	-9.844067e-001	7.335539e+000	8.319514e-001
2.753794463969295e-002	-1.245556e+000	6.985306e+000	8.230451e-001
2.769837990755009e-002	-1.503223e+000	6.617839e+000	8.120673e-001
2.785881517540724e-002	-1.757407e+000	6.233140e+000	7.990181e-001
2.801925044326438e-002	-2.008110e+000	5.831208e+000	7.838975e-001
2.817968571112153e-002	-2.255330e+000	5.412043e+000	7.667054e-001
2.836802276469296e-002	-2.538514e+000	4.900552e+000	7.438778e-001
2.855635981826439e-002	-2.810549e+000	4.376624e+000	7.186915e-001
2.874469687183582e-002	-3.071435e+000	3.840258e+000	6.911466e-001
2.893303392540725e-002	-3.321172e+000	3.291453e+000	6.612431e-001
2.912137097897868e-002	-3.559760e+000	2.730210e+000	6.289809e-001
2.930970803255011e-002	-3.787199e+000	2.156529e+000	5.943601e-001
2.949804508612154e-002	-4.003489e+000	1.570410e+000	5.573807e-001
2.956779955040726e-002	-4.079367e+000	1.353368e+000	5.432655e-001
2.963755401469298e-002	-4.153201e+000	1.135937e+000	5.289071e-001
2.970730847897869e-002	-4.224990e+000	9.181173e-001	5.143053e-001
2.977706294326440e-002	-4.294735e+000	6.999097e-001	4.994603e-001
2.984681740755012e-002	-4.362435e+000	4.813137e-001	4.843720e-001
2.991657187183584e-002	-4.428090e+000	2.623295e-001	4.690404e-001
2.998632633612155e-002	-4.491700e+000	4.295695e-002	4.534655e-001
3.006305624683584e-002	-4.559176e+000	-1.984332e-001	4.360755e-001
3.013978615755012e-002	-4.623914e+000	-4.393590e-001	4.184581e-001
3.021651606826441e-002	-4.685913e+000	-6.798202e-001	4.006133e-001
3.029324597897870e-002	-4.745174e+000	-9.198170e-001	3.825411e-001
3.036997588969299e-002	-4.801697e+000	-1.159349e+000	3.642416e-001
3.044670580040727e-002	-4.855481e+000	-1.398417e+000	3.457146e-001
3.052343571112156e-002	-4.906527e+000	-1.637021e+000	3.269603e-001
3.066992008612156e-002	-4.996205e+000	-2.091433e+000	2.904894e-001
3.081640446112156e-002	-5.074955e+000	-2.539091e+000	2.536014e-001
3.096288883612156e-002	-5.142778e+000	-2.979992e+000	2.162961e-001
3.110937321112155e-002	-5.199674e+000	-3.414137e+000	1.785737e-001
3.125585758612155e-002	-5.245642e+000	-3.841527e+000	1.404340e-001
3.140234196112155e-002	-5.280682e+000	-4.262161e+000	1.018772e-001
3.154882633612155e-002	-5.304795e+000	-4.676039e+000	6.290311e-002
3.179296696112154e-002	-5.319549e+000	-5.339600e+000	-1.973644e-003
3.188364776469296e-002	-5.317034e+000	-5.578731e+000	-2.613686e-002
3.197432856826438e-002	-5.310228e+000	-5.812872e+000	-5.023015e-002
3.206500937183580e-002	-5.299132e+000	-6.042022e+000	-7.425351e-002
3.215569017540723e-002	-5.283745e+000	-6.266182e+000	-9.820695e-002
3.224637097897865e-002	-5.264066e+000	-6.485352e+000	-1.220905e-001
3.233705178255008e-002	-5.240097e+000	-6.699532e+000	-1.459041e-001
3.242773258612150e-002	-5.211838e+000	-6.908721e+000	-1.696477e-001
3.263002053255006e-002	-5.132363e+000	-7.357609e+000	-2.224813e-001
3.283230847897862e-002	-5.033399e+000	-7.772998e+000	-2.739142e-001
3.303459642540718e-002	-4.914945e+000	-8.154890e+000	-3.239464e-001
3.323688437183574e-002	-4.777002e+000	-8.503284e+000	-3.725781e-001
3.343917231826430e-002	-4.619570e+000	-8.818180e+000	-4.198091e-001
3.364146026469286e-002	-4.442648e+000	-9.099579e+000	-4.656395e-001
3.384374821112142e-002	-4.246237e+000	-9.347480e+000	-5.100693e-001
3.409486428254998e-002	-3.975472e+000	-9.599917e+000	-5.623880e-001
3.434598035397853e-002	-3.684863e+000	-9.790803e+000	-6.105365e-001
3.459709642540709e-002	-3.374408e+000	-9.920137e+000	-6.545145e-001
3.484821249683565e-002	-3.044109e+000	-9.987918e+000	-6.943223e-001
3.509932856826421e-002	-2.693964e+000	-9.994148e+000	-7.299596e-001
3.535044463969277e-002	-2.323975e+000	-9.938827e+000	-7.614267e-001
3.560156071112132e-002	-1.934141e+000	-9.821953e+000	-7.887233e-001
3.574804508612131e-002	-1.702866e+000	-9.724345e+000	-8.020906e-001
3.589452946112130e-002	-1.469237e+000	-9.606892e+000	-8.137090e-001
3.604101383612129e-002	-1.233254e+000	-9.469595e+000	-8.235784e-001
3.618749821112129e-002	-9.949161e-001	-9.312454e+000	-8.316990e-001
3.633398258612128e-002	-7.542243e-001	-9.135468e+000	-8.380706e-001
3.648046696112127e-002	-5.111783e-001	-8.938638e+000	-8.426933e-001
3.662695133612126e-002	-2.657781e-001	-8.721963e+000	-8.455672e-001
3.701757633612124e-002	3.865784e-001	-8.057590e+000	-8.443695e-001
3.717103615754980e-002	6.432641e-001	-7.760845e+000	-8.403653e-001
3.732449597897836e-002	8.970011e-001	-7.447994e+000	-8.344557e-001
3.747795580040693e-002	1.147789e+000	-7.119035e+000	-8.266406e-001
3.763141562183549e-002	1.395629e+000	-6.773970e+000	-8.169201e-001
3.778487544326405e-002	1.640520e+000	-6.412798e+000	-8.052941e-001
3.793833526469261e-002	1.882462e+000	-6.035519e+000	-7.917627e-001
3.809179508612118e-002	2.121456e+000	-5.642134e+000	-7.763258e-001
3.828710758612117e-002	2.419133e+000	-5.119960e+000	-7.538791e-001
3.848242008612116e-002	2.705143e+000	-4.583717e+000	-7.288591e-001
3.867773258612114e-002	2.979488e+000	-4.033407e+000	-7.012657e-001
3.887304508612113e-002	3.242165e+000	-3.469028e+000	-6.710990e-001
3.906835758612112e-002	3.493177e+000	-2.890582e+000	-6.383588e-001
3.926367008612111e-002	3.732521e+000	-2.298067e+000	-6.030454e-001
3.945898258612110e-002	3.960200e+000	-1.691485e+000	-5.651585e-001
3.953571249683538e-002	4.044770e+000	-1.453087e+000	-5.497772e-001
3.961244240754967e-002	4.126875e+000	-1.214193e+000	-5.340997e-001
3.968917231826395e-002	4.206515e+000	-9.748031e-001	-5.181261e-001
3.976590222897822e-002	4.283689e+000	-7.349163e-001	-5.018563e-001
3.984263213969250e-002	4.358398e+000	-4.945331e-001	-4.852903e-001
3.991936205040679e-002	4.430643e+000	-2.536535e-001	-4.684281e-001
3.999609196112107e-002	4.500422e+000	-1.227746e-002	-4.512698e-001
4.007979731826392e-002	4.573552e+000	2.511174e-001	-4.322449e-001
